
T0C5C 000:001 SEGGER J-Link V6.16c Log File (0001ms, 0002ms total)
T0C5C 000:001 DLL Compiled: Jun 16 2017 18:14:49 (0001ms, 0002ms total)
T0C5C 000:001 Logging started @ 2026-04-14 20:58 (0001ms, 0002ms total)
T0C5C 000:002 JLINK_SetWarnOutHandler(...) (0000ms, 0002ms total)
T0C5C 000:002 JLINK_OpenEx(...)
Firmware: J-Link OB-STM32F072-CortexM compiled Jan  7 2019 14:09:37
Hardware: V1.00
Feature(s): RDI, FlashBP, FlashDL, JFlash, GDBWEBSRV Webserver running on local port 19080 (0011ms, 0013ms total)
T0C5C 000:002   returns O.K. (0011ms, 0013ms total)
T0C5C 000:013 JLINK_GetEmuCaps()  returns 0xB8EA5A33 (0000ms, 0013ms total)
T0C5C 000:013 JLINK_TIF_GetAvailable(...) (0000ms, 0013ms total)
T0C5C 000:013 JLINK_SetErrorOutHandler(...) (0000ms, 0013ms total)
T0C5C 000:013 JLINK_ExecCommand("ProjectFile = "C:\Users\30301\Desktop\NEW_STudy_CAN\MDK-ARM\JLinkSettings.ini"", ...).   returns 0x00 (0040ms, 0053ms total)
T0C5C 000:055 JLINK_ExecCommand("Device = STM32F103C8", ...). Device "STM32F103C8" selected.  returns 0x00 (0002ms, 0055ms total)
T0C5C 000:057 JLINK_ExecCommand("DisableConnectionTimeout", ...).   returns 0x01 (0000ms, 0055ms total)
T0C5C 000:057 JLINK_GetHardwareVersion()  returns 0x2710 (0000ms, 0055ms total)
T0C5C 000:057 JLINK_GetDLLVersion()  returns 61603 (0000ms, 0055ms total)
T0C5C 000:057 JLINK_GetFirmwareString(...) (0000ms, 0055ms total)
T0C5C 000:062 JLINK_GetDLLVersion()  returns 61603 (0000ms, 0055ms total)
T0C5C 000:062 JLINK_GetCompileDateTime() (0000ms, 0055ms total)
T0C5C 000:063 JLINK_GetFirmwareString(...) (0000ms, 0055ms total)
T0C5C 000:065 JLINK_GetHardwareVersion()  returns 0x2710 (0000ms, 0055ms total)
T0C5C 000:069 JLINK_TIF_Select(JLINKARM_TIF_SWD)  returns 0x00 (0000ms, 0055ms total)
T0C5C 000:069 JLINK_SetSpeed(50000) (0000ms, 0055ms total)
T0C5C 000:069 JLINK_GetId() >0x10B TIF>Found SW-DP with ID 0x1BA01477 >0x0D TIF> >0x28 TIF> >0x0D TIF> >0x28 TIF> >0x0D TIF> >0x28 TIF> >0x0D TIF> >0x28 TIF> >0x0D TIF> >0x21 TIF> >0x0D TIF> >0x28 TIF> >0x0D TIF> >0x28 TIF> >0x0D TIF> >0x28 TIF> >0x0D TIF> >0x21 TIF> >0x0D TIF> >0x21 TIF> >0x0D TIF> >0x28 TIF> >0x0D TIF> >0x21 TIF> >0x0D TIF> >0x21 TIF> >0x0D TIF> >0x28 TIF> >0x0D TIF> >0x21 TIF> >0x0D TIF> >0x21 TIF> >0x0D TIF> >0x28 TIF> >0x0D TIF> >0x21 TIF> >0x0D TIF> >0x21 TIF> >0x0D TIF> >0x28 TIF>
 >0x0D TIF> >0x21 TIF> >0x0D TIF> >0x21 TIF> >0x0D TIF> >0x28 TIF> >0x0D TIF> >0x21 TIF> >0x0D TIF> >0x21 TIF> >0x0D TIF> >0x28 TIF> >0x0D TIF> >0x21 TIF> >0x0D TIF> >0x21 TIF> >0x10B TIF>Found SW-DP with ID 0x1BA01477 >0x0D TIF> >0x28 TIF> >0x0D TIF> >0x28 TIF> >0x0D TIF> >0x28 TIF> >0x0D TIF> >0x28 TIF> >0x0D TIF> >0x21 TIF> >0x0D TIF> >0x28 TIF>Scanning APs, stopping at first AHB-AP found. >0x0D TIF> >0x28 TIF> >0x0D TIF> >0x21 TIF> >0x0D TIF> >0x21 TIF>AP[0] IDR: 0x14770011 (AHB-AP) >0x0D TIF>
 >0x28 TIF> >0x0D TIF> >0x21 TIF> >0x0D TIF> >0x21 TIF>AHB-AP ROM: 0xE00FF000 (Base addr. of first ROM table) >0x0D TIF> >0x28 TIF> >0x0D TIF> >0x28 TIF> >0x0D TIF> >0x28 TIF> >0x0D TIF> >0x21 TIF> >0x0D TIF> >0x21 TIF> >0x0D TIF> >0x28 TIF> >0x0D TIF> >0x21 TIF> >0x0D TIF> >0x21 TIF>CPUID reg: 0x411FC231. Implementer code: 0x41 (ARM)Found Cortex-M3 r1p1, Little endian. -- CPU_ReadMem(4 bytes @ 0xE000EDF0) -- CPU_WriteMem(4 bytes @ 0xE000EDF0) -- CPU_ReadMem(4 bytes @ 0xE0002000)
FPUnit: 6 code (BP) slots and 2 literal slots -- CPU_ReadMem(4 bytes @ 0xE000EDFC) -- CPU_WriteMem(4 bytes @ 0xE000EDFC) -- CPU_ReadMem(4 bytes @ 0xE0001000) -- CPU_WriteMem(4 bytes @ 0xE0001000) -- CPU_ReadMem(4 bytes @ 0xE000ED88) -- CPU_WriteMem(4 bytes @ 0xE000ED88) -- CPU_ReadMem(4 bytes @ 0xE000ED88) -- CPU_WriteMem(4 bytes @ 0xE000ED88)CoreSight components:ROMTbl[0] @ E00FF000 -- CPU_ReadMem(16 bytes @ 0xE00FF000) -- CPU_ReadMem(16 bytes @ 0xE000EFF0) -- CPU_ReadMem(16 bytes @ 0xE000EFE0)
ROMTbl[0][0]: E000E000, CID: B105E00D, PID: 001BB000 SCS -- CPU_ReadMem(16 bytes @ 0xE0001FF0) -- CPU_ReadMem(16 bytes @ 0xE0001FE0)ROMTbl[0][1]: E0001000, CID: B105E00D, PID: 001BB002 DWT -- CPU_ReadMem(16 bytes @ 0xE0002FF0) -- CPU_ReadMem(16 bytes @ 0xE0002FE0)ROMTbl[0][2]: E0002000, CID: B105E00D, PID: 000BB003 FPB -- CPU_ReadMem(16 bytes @ 0xE0000FF0) -- CPU_ReadMem(16 bytes @ 0xE0000FE0)ROMTbl[0][3]: E0000000, CID: B105E00D, PID: 001BB001 ITM -- CPU_ReadMem(16 bytes @ 0xE00FF010)
 -- CPU_ReadMem(16 bytes @ 0xE0040FF0) -- CPU_ReadMem(16 bytes @ 0xE0040FE0)ROMTbl[0][4]: E0040000, CID: B105900D, PID: 001BB923 TPIU-Lite >0x0D TIF> >0x21 TIF>  returns 0x1BA01477 (0057ms, 0112ms total)
T0C5C 000:126 JLINK_GetDLLVersion()  returns 61603 (0000ms, 0112ms total)
T0C5C 000:126 JLINK_CORE_GetFound()  returns 0x30000FF (0000ms, 0112ms total)
T0C5C 000:126 JLINK_GetDebugInfo(0x100 = JLINKARM_ROM_TABLE_ADDR_INDEX) -- Value=0xE00FF000  returns 0x00 (0000ms, 0112ms total)
T0C5C 000:127 JLINK_GetDebugInfo(0x100 = JLINKARM_ROM_TABLE_ADDR_INDEX) -- Value=0xE00FF000  returns 0x00 (0000ms, 0112ms total)
T0C5C 000:127 JLINK_GetDebugInfo(0x101 = JLINKARM_DEBUG_INFO_ETM_ADDR_INDEX) -- Value=0x00000000  returns 0x00 (0000ms, 0112ms total)
T0C5C 000:127 JLINK_ReadMemEx(0xE0041FF0, 0x0010 Bytes, ..., Flags = 0x02000004) -- CPU_ReadMem(16 bytes @ 0xE0041FF0) - Data: 00 00 00 00 00 00 00 00 00 00 00 00 00 00 00 00  returns 0x10 (0001ms, 0113ms total)
T0C5C 000:128 JLINK_GetDebugInfo(0x102 = JLINKARM_DEBUG_INFO_MTB_ADDR_INDEX) -- Value=0x00000000  returns 0x00 (0000ms, 0113ms total)
T0C5C 000:128 JLINK_GetDebugInfo(0x103 = JLINKARM_DEBUG_INFO_TPIU_ADDR_INDEX) -- Value=0xE0040000  returns 0x00 (0000ms, 0113ms total)
T0C5C 000:128 JLINK_GetDebugInfo(0x104 = JLINKARM_DEBUG_INFO_ITM_ADDR_INDEX) -- Value=0xE0000000  returns 0x00 (0000ms, 0113ms total)
T0C5C 000:128 JLINK_GetDebugInfo(0x105 = JLINKARM_DEBUG_INFO_DWT_ADDR_INDEX) -- Value=0xE0001000  returns 0x00 (0000ms, 0113ms total)
T0C5C 000:128 JLINK_GetDebugInfo(0x106 = JLINKARM_DEBUG_INFO_FPB_ADDR_INDEX) -- Value=0xE0002000  returns 0x00 (0000ms, 0113ms total)
T0C5C 000:128 JLINK_GetDebugInfo(0x107 = JLINKARM_DEBUG_INFO_NVIC_ADDR_INDEX) -- Value=0xE000E000  returns 0x00 (0000ms, 0113ms total)
T0C5C 000:128 JLINK_GetDebugInfo(0x10C = JLINKARM_DEBUG_INFO_DBG_ADDR_INDEX) -- Value=0xE000EDF0  returns 0x00 (0000ms, 0113ms total)
T0C5C 000:128 JLINK_ReadMemU32(0xE000ED00, 0x0001 Items, ...) -- CPU_ReadMem(4 bytes @ 0xE000ED00) - Data: 31 C2 1F 41  returns 0x01 (0000ms, 0113ms total)
T0C5C 000:128 JLINK_GetDebugInfo(0x10F = JLINKARM_DEBUG_INFO_HAS_CORTEX_M_SECURITY_EXT_INDEX) -- Value=0x00000000  returns 0x00 (0000ms, 0113ms total)
T0C5C 000:128 JLINK_SetResetType(JLINKARM_CM3_RESET_TYPE_NORMAL)  returns JLINKARM_CM3_RESET_TYPE_NORMAL (0001ms, 0114ms total)
T0C5C 000:129 JLINK_Reset() -- CPU is running -- CPU_WriteMem(4 bytes @ 0xE000EDF0) -- CPU is running -- CPU_WriteMem(4 bytes @ 0xE000EDFC) >0x35 TIF>Setting AIRCR.SYSRESETREQ -- CPU is running -- CPU_WriteMem(4 bytes @ 0xE000ED0C) >0x0D TIF> >0x28 TIF> -- CPU_ReadMem(4 bytes @ 0xE000ED0C) -- CPU_ReadMem(4 bytes @ 0xE000EDF0) -- CPU_ReadMem(4 bytes @ 0xE000EDF0) -- CPU_ReadMem(4 bytes @ 0xE000EDF0) -- CPU is running -- CPU_WriteMem(4 bytes @ 0xE000EDF0) -- CPU is running
 -- CPU_WriteMem(4 bytes @ 0xE000EDFC) -- CPU_ReadMem(4 bytes @ 0xE000EDF0) -- CPU_WriteMem(4 bytes @ 0xE0002000) -- CPU_ReadMem(4 bytes @ 0xE000EDFC) -- CPU_ReadMem(4 bytes @ 0xE0001000) (0070ms, 0184ms total)
T0C5C 000:199 JLINK_Halt()  returns 0x00 (0000ms, 0184ms total)
T0C5C 000:199 JLINK_ReadMemU32(0xE000EDF0, 0x0001 Items, ...) -- CPU_ReadMem(4 bytes @ 0xE000EDF0) - Data: 03 00 03 00  returns 0x01 (0000ms, 0184ms total)
T0C5C 000:199 JLINK_WriteU32(0xE000EDF0, 0xA05F0003) -- CPU_WriteMem(4 bytes @ 0xE000EDF0)  returns 0x00 (0001ms, 0185ms total)
T0C5C 000:200 JLINK_WriteU32(0xE000EDFC, 0x01000000) -- CPU_WriteMem(4 bytes @ 0xE000EDFC)  returns 0x00 (0000ms, 0185ms total)
T0C5C 000:207 JLINK_GetHWStatus(...)  returns 0x00 (0000ms, 0185ms total)
T0C5C 000:210 JLINK_GetNumBPUnits(Type = 0xFFFFFF00)  returns 0x06 (0000ms, 0185ms total)
T0C5C 000:210 JLINK_GetNumBPUnits(Type = 0xF0)  returns 0x2000 (0000ms, 0185ms total)
T0C5C 000:210 JLINK_GetNumWPUnits()  returns 0x04 (0000ms, 0185ms total)
T0C5C 000:214 JLINK_GetSpeed()  returns 0x7D0 (0000ms, 0185ms total)
T0C5C 000:217 JLINK_ReadMemU32(0xE000E004, 0x0001 Items, ...) -- CPU_ReadMem(4 bytes @ 0xE000E004) - Data: 01 00 00 00  returns 0x01 (0000ms, 0185ms total)
T0C5C 000:217 JLINK_ReadMemU32(0xE000E004, 0x0001 Items, ...) -- CPU_ReadMem(4 bytes @ 0xE000E004) - Data: 01 00 00 00  returns 0x01 (0001ms, 0186ms total)
T0C5C 000:218 JLINK_WriteMemEx(0xE0001000, 0x001C Bytes, ..., Flags = 0x02000004) - Data: 01 00 00 00 00 00 00 00 00 00 00 00 00 00 00 00 ... -- CPU_WriteMem(28 bytes @ 0xE0001000)  returns 0x1C (0000ms, 0186ms total)
T0C5C 000:218 JLINK_Halt()  returns 0x00 (0000ms, 0186ms total)
T0C5C 000:218 JLINK_IsHalted()  returns TRUE (0000ms, 0186ms total)
T0C5C 000:221 JLINK_WriteMem(0x20000000, 0x0164 Bytes, ...) - Data: 00 BE 0A E0 0D 78 2D 06 68 40 08 24 40 00 00 D3 ... -- CPU_WriteMem(356 bytes @ 0x20000000)  returns 0x164 (0004ms, 0190ms total)
T0C5C 000:225 JLINK_WriteReg(R0, 0x08000000)  returns 0x00 (0000ms, 0190ms total)
T0C5C 000:225 JLINK_WriteReg(R1, 0x007A1200)  returns 0x00 (0000ms, 0190ms total)
T0C5C 000:225 JLINK_WriteReg(R2, 0x00000001)  returns 0x00 (0000ms, 0190ms total)
T0C5C 000:225 JLINK_WriteReg(R3, 0x00000000)  returns 0x00 (0000ms, 0190ms total)
T0C5C 000:225 JLINK_WriteReg(R4, 0x00000000)  returns 0x00 (0000ms, 0190ms total)
T0C5C 000:225 JLINK_WriteReg(R5, 0x00000000)  returns 0x00 (0000ms, 0190ms total)
T0C5C 000:225 JLINK_WriteReg(R6, 0x00000000)  returns 0x00 (0000ms, 0190ms total)
T0C5C 000:225 JLINK_WriteReg(R7, 0x00000000)  returns 0x00 (0000ms, 0190ms total)
T0C5C 000:225 JLINK_WriteReg(R8, 0x00000000)  returns 0x00 (0000ms, 0190ms total)
T0C5C 000:225 JLINK_WriteReg(R9, 0x20000160)  returns 0x00 (0000ms, 0190ms total)
T0C5C 000:225 JLINK_WriteReg(R10, 0x00000000)  returns 0x00 (0000ms, 0190ms total)
T0C5C 000:225 JLINK_WriteReg(R11, 0x00000000)  returns 0x00 (0000ms, 0190ms total)
T0C5C 000:225 JLINK_WriteReg(R12, 0x00000000)  returns 0x00 (0000ms, 0190ms total)
T0C5C 000:225 JLINK_WriteReg(R13 (SP), 0x20001000)  returns 0x00 (0000ms, 0190ms total)
T0C5C 000:225 JLINK_WriteReg(R14, 0x20000001)  returns 0x00 (0000ms, 0190ms total)
T0C5C 000:225 JLINK_WriteReg(R15 (PC), 0x20000038)  returns 0x00 (0000ms, 0190ms total)
T0C5C 000:225 JLINK_WriteReg(XPSR, 0x01000000)  returns 0x00 (0000ms, 0190ms total)
T0C5C 000:225 JLINK_WriteReg(MSP, 0x20001000)  returns 0x00 (0000ms, 0190ms total)
T0C5C 000:225 JLINK_WriteReg(PSP, 0x20001000)  returns 0x00 (0000ms, 0190ms total)
T0C5C 000:225 JLINK_WriteReg(CFBP, 0x00000000)  returns 0x00 (0000ms, 0190ms total)
T0C5C 000:225 JLINK_SetBPEx(Addr = 0x20000000, Type = 0xFFFFFFF2) -- CPU_ReadMem(2 bytes @ 0x20000000)  returns 0x00000001 (0000ms, 0190ms total)
T0C5C 000:225 JLINK_Go() -- CPU_WriteMem(2 bytes @ 0x20000000) -- CPU_ReadMem(4 bytes @ 0xE0001000) -- CPU_WriteMem(4 bytes @ 0xE0002008) -- CPU_WriteMem(4 bytes @ 0xE000200C) -- CPU_WriteMem(4 bytes @ 0xE0002010) -- CPU_WriteMem(4 bytes @ 0xE0002014) -- CPU_WriteMem(4 bytes @ 0xE0002018) -- CPU_WriteMem(4 bytes @ 0xE000201C) -- CPU_WriteMem(4 bytes @ 0xE0001004) (0006ms, 0196ms total)
T0C5C 000:231 JLINK_IsHalted() -- CPU_ReadMem(2 bytes @ 0x20000000)  returns TRUE (0006ms, 0202ms total)
T0C5C 000:237 JLINK_ReadReg(R15 (PC))  returns 0x20000000 (0000ms, 0196ms total)
T0C5C 000:237 JLINK_ClrBPEx(BPHandle = 0x00000001)  returns 0x00 (0000ms, 0196ms total)
T0C5C 000:237 JLINK_ReadReg(R0)  returns 0x00000000 (0000ms, 0196ms total)
T0C5C 000:237 JLINK_WriteReg(R0, 0x08000000)  returns 0x00 (0000ms, 0196ms total)
T0C5C 000:237 JLINK_WriteReg(R1, 0x007A1200)  returns 0x00 (0000ms, 0196ms total)
T0C5C 000:237 JLINK_WriteReg(R2, 0x00000001)  returns 0x00 (0000ms, 0196ms total)
T0C5C 000:237 JLINK_WriteReg(R3, 0x00000000)  returns 0x00 (0000ms, 0196ms total)
T0C5C 000:237 JLINK_WriteReg(R4, 0x00000000)  returns 0x00 (0000ms, 0196ms total)
T0C5C 000:237 JLINK_WriteReg(R5, 0x00000000)  returns 0x00 (0000ms, 0196ms total)
T0C5C 000:237 JLINK_WriteReg(R6, 0x00000000)  returns 0x00 (0000ms, 0196ms total)
T0C5C 000:237 JLINK_WriteReg(R7, 0x00000000)  returns 0x00 (0000ms, 0196ms total)
T0C5C 000:237 JLINK_WriteReg(R8, 0x00000000)  returns 0x00 (0000ms, 0196ms total)
T0C5C 000:237 JLINK_WriteReg(R9, 0x20000160)  returns 0x00 (0000ms, 0196ms total)
T0C5C 000:237 JLINK_WriteReg(R10, 0x00000000)  returns 0x00 (0000ms, 0196ms total)
T0C5C 000:237 JLINK_WriteReg(R11, 0x00000000)  returns 0x00 (0000ms, 0196ms total)
T0C5C 000:237 JLINK_WriteReg(R12, 0x00000000)  returns 0x00 (0000ms, 0196ms total)
T0C5C 000:237 JLINK_WriteReg(R13 (SP), 0x20001000)  returns 0x00 (0000ms, 0196ms total)
T0C5C 000:237 JLINK_WriteReg(R14, 0x20000001)  returns 0x00 (0000ms, 0196ms total)
T0C5C 000:237 JLINK_WriteReg(R15 (PC), 0x2000007C)  returns 0x00 (0000ms, 0196ms total)
T0C5C 000:237 JLINK_WriteReg(XPSR, 0x01000000)  returns 0x00 (0000ms, 0196ms total)
T0C5C 000:237 JLINK_WriteReg(MSP, 0x20001000)  returns 0x00 (0000ms, 0196ms total)
T0C5C 000:237 JLINK_WriteReg(PSP, 0x20001000)  returns 0x00 (0000ms, 0196ms total)
T0C5C 000:237 JLINK_WriteReg(CFBP, 0x00000000)  returns 0x00 (0000ms, 0196ms total)
T0C5C 000:237 JLINK_SetBPEx(Addr = 0x20000000, Type = 0xFFFFFFF2)  returns 0x00000002 (0000ms, 0196ms total)
T0C5C 000:237 JLINK_Go() -- CPU_ReadMem(4 bytes @ 0xE0001000) (0002ms, 0198ms total)
T0C5C 000:239 JLINK_IsHalted()  returns FALSE (0000ms, 0198ms total)
T0C5C 000:264 JLINK_IsHalted() -- CPU_ReadMem(2 bytes @ 0x20000000)  returns TRUE (0004ms, 0202ms total)
T0C5C 000:268 JLINK_ReadReg(R15 (PC))  returns 0x20000000 (0000ms, 0198ms total)
T0C5C 000:268 JLINK_ClrBPEx(BPHandle = 0x00000002)  returns 0x00 (0000ms, 0198ms total)
T0C5C 000:268 JLINK_ReadReg(R0)  returns 0x00000000 (0000ms, 0198ms total)
T0C5C 000:319 JLINK_WriteReg(R0, 0x00000001)  returns 0x00 (0000ms, 0198ms total)
T0C5C 000:319 JLINK_WriteReg(R1, 0x007A1200)  returns 0x00 (0000ms, 0198ms total)
T0C5C 000:319 JLINK_WriteReg(R2, 0x00000001)  returns 0x00 (0000ms, 0198ms total)
T0C5C 000:319 JLINK_WriteReg(R3, 0x00000000)  returns 0x00 (0000ms, 0198ms total)
T0C5C 000:319 JLINK_WriteReg(R4, 0x00000000)  returns 0x00 (0000ms, 0198ms total)
T0C5C 000:319 JLINK_WriteReg(R5, 0x00000000)  returns 0x00 (0000ms, 0198ms total)
T0C5C 000:319 JLINK_WriteReg(R6, 0x00000000)  returns 0x00 (0000ms, 0198ms total)
T0C5C 000:319 JLINK_WriteReg(R7, 0x00000000)  returns 0x00 (0000ms, 0198ms total)
T0C5C 000:319 JLINK_WriteReg(R8, 0x00000000)  returns 0x00 (0000ms, 0198ms total)
T0C5C 000:319 JLINK_WriteReg(R9, 0x20000160)  returns 0x00 (0000ms, 0198ms total)
T0C5C 000:319 JLINK_WriteReg(R10, 0x00000000)  returns 0x00 (0000ms, 0198ms total)
T0C5C 000:319 JLINK_WriteReg(R11, 0x00000000)  returns 0x00 (0000ms, 0198ms total)
T0C5C 000:319 JLINK_WriteReg(R12, 0x00000000)  returns 0x00 (0000ms, 0198ms total)
T0C5C 000:319 JLINK_WriteReg(R13 (SP), 0x20001000)  returns 0x00 (0001ms, 0199ms total)
T0C5C 000:320 JLINK_WriteReg(R14, 0x20000001)  returns 0x00 (0000ms, 0199ms total)
T0C5C 000:320 JLINK_WriteReg(R15 (PC), 0x2000006A)  returns 0x00 (0000ms, 0199ms total)
T0C5C 000:320 JLINK_WriteReg(XPSR, 0x01000000)  returns 0x00 (0000ms, 0199ms total)
T0C5C 000:320 JLINK_WriteReg(MSP, 0x20001000)  returns 0x00 (0000ms, 0199ms total)
T0C5C 000:320 JLINK_WriteReg(PSP, 0x20001000)  returns 0x00 (0000ms, 0199ms total)
T0C5C 000:320 JLINK_WriteReg(CFBP, 0x00000000)  returns 0x00 (0000ms, 0199ms total)
T0C5C 000:320 JLINK_SetBPEx(Addr = 0x20000000, Type = 0xFFFFFFF2)  returns 0x00000003 (0000ms, 0199ms total)
T0C5C 000:320 JLINK_Go() -- CPU_ReadMem(4 bytes @ 0xE0001000) (0002ms, 0201ms total)
T0C5C 000:322 JLINK_IsHalted() -- CPU_ReadMem(2 bytes @ 0x20000000)  returns TRUE (0004ms, 0205ms total)
T0C5C 000:326 JLINK_ReadReg(R15 (PC))  returns 0x20000000 (0000ms, 0201ms total)
T0C5C 000:326 JLINK_ClrBPEx(BPHandle = 0x00000003)  returns 0x00 (0000ms, 0201ms total)
T0C5C 000:326 JLINK_ReadReg(R0)  returns 0x00000000 (0000ms, 0201ms total)
T0C5C 000:331 JLINK_WriteMem(0x20000000, 0x0164 Bytes, ...) - Data: 00 BE 0A E0 0D 78 2D 06 68 40 08 24 40 00 00 D3 ... -- CPU_WriteMem(356 bytes @ 0x20000000)  returns 0x164 (0004ms, 0205ms total)
T0C5C 000:335 JLINK_WriteReg(R0, 0x08000000)  returns 0x00 (0000ms, 0205ms total)
T0C5C 000:335 JLINK_WriteReg(R1, 0x007A1200)  returns 0x00 (0000ms, 0205ms total)
T0C5C 000:335 JLINK_WriteReg(R2, 0x00000002)  returns 0x00 (0000ms, 0205ms total)
T0C5C 000:335 JLINK_WriteReg(R3, 0x00000000)  returns 0x00 (0000ms, 0205ms total)
T0C5C 000:335 JLINK_WriteReg(R4, 0x00000000)  returns 0x00 (0000ms, 0205ms total)
T0C5C 000:335 JLINK_WriteReg(R5, 0x00000000)  returns 0x00 (0000ms, 0205ms total)
T0C5C 000:335 JLINK_WriteReg(R6, 0x00000000)  returns 0x00 (0000ms, 0205ms total)
T0C5C 000:335 JLINK_WriteReg(R7, 0x00000000)  returns 0x00 (0000ms, 0205ms total)
T0C5C 000:335 JLINK_WriteReg(R8, 0x00000000)  returns 0x00 (0000ms, 0205ms total)
T0C5C 000:335 JLINK_WriteReg(R9, 0x20000160)  returns 0x00 (0000ms, 0205ms total)
T0C5C 000:335 JLINK_WriteReg(R10, 0x00000000)  returns 0x00 (0000ms, 0205ms total)
T0C5C 000:335 JLINK_WriteReg(R11, 0x00000000)  returns 0x00 (0000ms, 0205ms total)
T0C5C 000:335 JLINK_WriteReg(R12, 0x00000000)  returns 0x00 (0000ms, 0205ms total)
T0C5C 000:335 JLINK_WriteReg(R13 (SP), 0x20001000)  returns 0x00 (0000ms, 0205ms total)
T0C5C 000:335 JLINK_WriteReg(R14, 0x20000001)  returns 0x00 (0000ms, 0205ms total)
T0C5C 000:335 JLINK_WriteReg(R15 (PC), 0x20000038)  returns 0x00 (0000ms, 0205ms total)
T0C5C 000:335 JLINK_WriteReg(XPSR, 0x01000000)  returns 0x00 (0000ms, 0205ms total)
T0C5C 000:335 JLINK_WriteReg(MSP, 0x20001000)  returns 0x00 (0000ms, 0205ms total)
T0C5C 000:335 JLINK_WriteReg(PSP, 0x20001000)  returns 0x00 (0000ms, 0205ms total)
T0C5C 000:335 JLINK_WriteReg(CFBP, 0x00000000)  returns 0x00 (0000ms, 0205ms total)
T0C5C 000:335 JLINK_SetBPEx(Addr = 0x20000000, Type = 0xFFFFFFF2) -- CPU_ReadMem(2 bytes @ 0x20000000)  returns 0x00000004 (0000ms, 0205ms total)
T0C5C 000:335 JLINK_Go() -- CPU_WriteMem(2 bytes @ 0x20000000) -- CPU_ReadMem(4 bytes @ 0xE0001000) (0003ms, 0208ms total)
T0C5C 000:338 JLINK_IsHalted() -- CPU_ReadMem(2 bytes @ 0x20000000)  returns TRUE (0005ms, 0213ms total)
T0C5C 000:343 JLINK_ReadReg(R15 (PC))  returns 0x20000000 (0000ms, 0208ms total)
T0C5C 000:343 JLINK_ClrBPEx(BPHandle = 0x00000004)  returns 0x00 (0000ms, 0208ms total)
T0C5C 000:343 JLINK_ReadReg(R0)  returns 0x00000000 (0000ms, 0208ms total)
T0C5C 000:343 JLINK_WriteMem(0x20000164, 0x029C Bytes, ...) - Data: C8 07 00 20 89 01 00 08 17 20 00 08 F9 17 00 08 ... -- CPU_WriteMem(668 bytes @ 0x20000164)  returns 0x29C (0006ms, 0214ms total)
T0C5C 000:349 JLINK_WriteMem(0x20000400, 0x0164 Bytes, ...) - Data: 70 47 00 00 2D E9 FF 4F 83 B0 90 46 0E 46 07 46 ... -- CPU_WriteMem(356 bytes @ 0x20000400)  returns 0x164 (0005ms, 0219ms total)
T0C5C 000:354 JLINK_WriteReg(R0, 0x08000000)  returns 0x00 (0000ms, 0219ms total)
T0C5C 000:354 JLINK_WriteReg(R1, 0x00000400)  returns 0x00 (0000ms, 0219ms total)
T0C5C 000:354 JLINK_WriteReg(R2, 0x20000164)  returns 0x00 (0000ms, 0219ms total)
T0C5C 000:354 JLINK_WriteReg(R3, 0x00000000)  returns 0x00 (0000ms, 0219ms total)
T0C5C 000:354 JLINK_WriteReg(R4, 0x00000000)  returns 0x00 (0000ms, 0219ms total)
T0C5C 000:354 JLINK_WriteReg(R5, 0x00000000)  returns 0x00 (0000ms, 0219ms total)
T0C5C 000:354 JLINK_WriteReg(R6, 0x00000000)  returns 0x00 (0000ms, 0219ms total)
T0C5C 000:354 JLINK_WriteReg(R7, 0x00000000)  returns 0x00 (0000ms, 0219ms total)
T0C5C 000:354 JLINK_WriteReg(R8, 0x00000000)  returns 0x00 (0000ms, 0219ms total)
T0C5C 000:354 JLINK_WriteReg(R9, 0x20000160)  returns 0x00 (0000ms, 0219ms total)
T0C5C 000:354 JLINK_WriteReg(R10, 0x00000000)  returns 0x00 (0000ms, 0219ms total)
T0C5C 000:354 JLINK_WriteReg(R11, 0x00000000)  returns 0x00 (0000ms, 0219ms total)
T0C5C 000:354 JLINK_WriteReg(R12, 0x00000000)  returns 0x00 (0000ms, 0219ms total)
T0C5C 000:354 JLINK_WriteReg(R13 (SP), 0x20001000)  returns 0x00 (0000ms, 0219ms total)
T0C5C 000:354 JLINK_WriteReg(R14, 0x20000001)  returns 0x00 (0000ms, 0219ms total)
T0C5C 000:354 JLINK_WriteReg(R15 (PC), 0x200000F4)  returns 0x00 (0000ms, 0219ms total)
T0C5C 000:354 JLINK_WriteReg(XPSR, 0x01000000)  returns 0x00 (0000ms, 0219ms total)
T0C5C 000:354 JLINK_WriteReg(MSP, 0x20001000)  returns 0x00 (0000ms, 0219ms total)
T0C5C 000:354 JLINK_WriteReg(PSP, 0x20001000)  returns 0x00 (0000ms, 0219ms total)
T0C5C 000:354 JLINK_WriteReg(CFBP, 0x00000000)  returns 0x00 (0000ms, 0219ms total)
T0C5C 000:354 JLINK_SetBPEx(Addr = 0x20000000, Type = 0xFFFFFFF2)  returns 0x00000005 (0000ms, 0219ms total)
T0C5C 000:354 JLINK_Go() -- CPU_ReadMem(4 bytes @ 0xE0001000) (0002ms, 0221ms total)
T0C5C 000:356 JLINK_IsHalted()  returns FALSE (0001ms, 0222ms total)
T0C5C 000:361 JLINK_IsHalted()  returns FALSE (0000ms, 0221ms total)
T0C5C 000:363 JLINK_IsHalted()  returns FALSE (0000ms, 0221ms total)
T0C5C 000:365 JLINK_IsHalted()  returns FALSE (0000ms, 0221ms total)
T0C5C 000:367 JLINK_IsHalted()  returns FALSE (0000ms, 0221ms total)
T0C5C 000:369 JLINK_IsHalted()  returns FALSE (0000ms, 0221ms total)
T0C5C 000:371 JLINK_IsHalted()  returns FALSE (0000ms, 0221ms total)
T0C5C 000:373 JLINK_IsHalted()  returns FALSE (0000ms, 0221ms total)
T0C5C 000:375 JLINK_IsHalted()  returns FALSE (0000ms, 0221ms total)
T0C5C 000:377 JLINK_IsHalted()  returns FALSE (0000ms, 0221ms total)
T0C5C 000:379 JLINK_IsHalted()  returns FALSE (0000ms, 0221ms total)
T0C5C 000:381 JLINK_IsHalted()  returns FALSE (0000ms, 0221ms total)
T0C5C 000:383 JLINK_IsHalted()  returns FALSE (0000ms, 0221ms total)
T0C5C 000:385 JLINK_IsHalted()  returns FALSE (0000ms, 0221ms total)
T0C5C 000:387 JLINK_IsHalted()  returns FALSE (0000ms, 0221ms total)
T0C5C 000:389 JLINK_IsHalted() -- CPU_ReadMem(2 bytes @ 0x20000000)  returns TRUE (0004ms, 0225ms total)
T0C5C 000:393 JLINK_ReadReg(R15 (PC))  returns 0x20000000 (0000ms, 0221ms total)
T0C5C 000:393 JLINK_ClrBPEx(BPHandle = 0x00000005)  returns 0x00 (0000ms, 0221ms total)
T0C5C 000:393 JLINK_ReadReg(R0)  returns 0x00000000 (0000ms, 0221ms total)
T0C5C 000:393 JLINK_WriteMem(0x20000164, 0x029C Bytes, ...) - Data: 44 F4 00 44 07 E0 38 03 02 D5 44 F4 80 34 02 E0 ... -- CPU_WriteMem(668 bytes @ 0x20000164)  returns 0x29C (0007ms, 0228ms total)
T0C5C 000:400 JLINK_WriteMem(0x20000400, 0x0164 Bytes, ...) - Data: 00 71 04 91 81 69 41 F0 04 01 81 61 80 69 15 4C ... -- CPU_WriteMem(356 bytes @ 0x20000400)  returns 0x164 (0005ms, 0233ms total)
T0C5C 000:405 JLINK_WriteReg(R0, 0x08000400)  returns 0x00 (0000ms, 0233ms total)
T0C5C 000:405 JLINK_WriteReg(R1, 0x00000400)  returns 0x00 (0000ms, 0233ms total)
T0C5C 000:405 JLINK_WriteReg(R2, 0x20000164)  returns 0x00 (0000ms, 0233ms total)
T0C5C 000:405 JLINK_WriteReg(R3, 0x00000000)  returns 0x00 (0000ms, 0233ms total)
T0C5C 000:405 JLINK_WriteReg(R4, 0x00000000)  returns 0x00 (0000ms, 0233ms total)
T0C5C 000:405 JLINK_WriteReg(R5, 0x00000000)  returns 0x00 (0000ms, 0233ms total)
T0C5C 000:405 JLINK_WriteReg(R6, 0x00000000)  returns 0x00 (0000ms, 0233ms total)
T0C5C 000:405 JLINK_WriteReg(R7, 0x00000000)  returns 0x00 (0000ms, 0233ms total)
T0C5C 000:405 JLINK_WriteReg(R8, 0x00000000)  returns 0x00 (0000ms, 0233ms total)
T0C5C 000:405 JLINK_WriteReg(R9, 0x20000160)  returns 0x00 (0000ms, 0233ms total)
T0C5C 000:405 JLINK_WriteReg(R10, 0x00000000)  returns 0x00 (0000ms, 0233ms total)
T0C5C 000:405 JLINK_WriteReg(R11, 0x00000000)  returns 0x00 (0000ms, 0233ms total)
T0C5C 000:405 JLINK_WriteReg(R12, 0x00000000)  returns 0x00 (0000ms, 0233ms total)
T0C5C 000:405 JLINK_WriteReg(R13 (SP), 0x20001000)  returns 0x00 (0000ms, 0233ms total)
T0C5C 000:405 JLINK_WriteReg(R14, 0x20000001)  returns 0x00 (0000ms, 0233ms total)
T0C5C 000:405 JLINK_WriteReg(R15 (PC), 0x200000F4)  returns 0x00 (0000ms, 0233ms total)
T0C5C 000:405 JLINK_WriteReg(XPSR, 0x01000000)  returns 0x00 (0000ms, 0233ms total)
T0C5C 000:405 JLINK_WriteReg(MSP, 0x20001000)  returns 0x00 (0000ms, 0233ms total)
T0C5C 000:405 JLINK_WriteReg(PSP, 0x20001000)  returns 0x00 (0000ms, 0233ms total)
T0C5C 000:405 JLINK_WriteReg(CFBP, 0x00000000)  returns 0x00 (0000ms, 0233ms total)
T0C5C 000:405 JLINK_SetBPEx(Addr = 0x20000000, Type = 0xFFFFFFF2)  returns 0x00000006 (0000ms, 0233ms total)
T0C5C 000:405 JLINK_Go() -- CPU_ReadMem(4 bytes @ 0xE0001000) (0003ms, 0236ms total)
T0C5C 000:408 JLINK_IsHalted()  returns FALSE (0000ms, 0236ms total)
T0C5C 000:410 JLINK_IsHalted()  returns FALSE (0000ms, 0236ms total)
T0C5C 000:412 JLINK_IsHalted()  returns FALSE (0000ms, 0236ms total)
T0C5C 000:414 JLINK_IsHalted()  returns FALSE (0000ms, 0236ms total)
T0C5C 000:416 JLINK_IsHalted()  returns FALSE (0000ms, 0236ms total)
T0C5C 000:418 JLINK_IsHalted()  returns FALSE (0000ms, 0236ms total)
T0C5C 000:420 JLINK_IsHalted()  returns FALSE (0000ms, 0236ms total)
T0C5C 000:423 JLINK_IsHalted()  returns FALSE (0000ms, 0236ms total)
T0C5C 000:425 JLINK_IsHalted()  returns FALSE (0000ms, 0236ms total)
T0C5C 000:427 JLINK_IsHalted()  returns FALSE (0000ms, 0236ms total)
T0C5C 000:429 JLINK_IsHalted()  returns FALSE (0000ms, 0236ms total)
T0C5C 000:431 JLINK_IsHalted()  returns FALSE (0000ms, 0236ms total)
T0C5C 000:433 JLINK_IsHalted()  returns FALSE (0000ms, 0236ms total)
T0C5C 000:435 JLINK_IsHalted()  returns FALSE (0000ms, 0236ms total)
T0C5C 000:437 JLINK_IsHalted()  returns FALSE (0000ms, 0236ms total)
T0C5C 000:439 JLINK_IsHalted() -- CPU_ReadMem(2 bytes @ 0x20000000)  returns TRUE (0004ms, 0240ms total)
T0C5C 000:443 JLINK_ReadReg(R15 (PC))  returns 0x20000000 (0000ms, 0236ms total)
T0C5C 000:443 JLINK_ClrBPEx(BPHandle = 0x00000006)  returns 0x00 (0000ms, 0236ms total)
T0C5C 000:443 JLINK_ReadReg(R0)  returns 0x00000000 (0000ms, 0236ms total)
T0C5C 000:444 JLINK_WriteMem(0x20000164, 0x029C Bytes, ...) - Data: 00 F0 04 F9 05 46 60 1C 02 D0 04 48 00 78 04 44 ... -- CPU_WriteMem(668 bytes @ 0x20000164)  returns 0x29C (0007ms, 0243ms total)
T0C5C 000:451 JLINK_WriteMem(0x20000400, 0x0164 Bytes, ...) - Data: 01 01 00 91 C1 69 41 F0 80 51 C1 61 C0 69 00 F0 ... -- CPU_WriteMem(356 bytes @ 0x20000400)  returns 0x164 (0004ms, 0247ms total)
T0C5C 000:455 JLINK_WriteReg(R0, 0x08000800)  returns 0x00 (0000ms, 0247ms total)
T0C5C 000:455 JLINK_WriteReg(R1, 0x00000400)  returns 0x00 (0000ms, 0247ms total)
T0C5C 000:455 JLINK_WriteReg(R2, 0x20000164)  returns 0x00 (0000ms, 0247ms total)
T0C5C 000:455 JLINK_WriteReg(R3, 0x00000000)  returns 0x00 (0000ms, 0247ms total)
T0C5C 000:455 JLINK_WriteReg(R4, 0x00000000)  returns 0x00 (0000ms, 0247ms total)
T0C5C 000:455 JLINK_WriteReg(R5, 0x00000000)  returns 0x00 (0000ms, 0247ms total)
T0C5C 000:455 JLINK_WriteReg(R6, 0x00000000)  returns 0x00 (0000ms, 0247ms total)
T0C5C 000:455 JLINK_WriteReg(R7, 0x00000000)  returns 0x00 (0000ms, 0247ms total)
T0C5C 000:455 JLINK_WriteReg(R8, 0x00000000)  returns 0x00 (0000ms, 0247ms total)
T0C5C 000:455 JLINK_WriteReg(R9, 0x20000160)  returns 0x00 (0000ms, 0247ms total)
T0C5C 000:455 JLINK_WriteReg(R10, 0x00000000)  returns 0x00 (0000ms, 0247ms total)
T0C5C 000:455 JLINK_WriteReg(R11, 0x00000000)  returns 0x00 (0000ms, 0247ms total)
T0C5C 000:455 JLINK_WriteReg(R12, 0x00000000)  returns 0x00 (0000ms, 0247ms total)
T0C5C 000:455 JLINK_WriteReg(R13 (SP), 0x20001000)  returns 0x00 (0000ms, 0247ms total)
T0C5C 000:455 JLINK_WriteReg(R14, 0x20000001)  returns 0x00 (0000ms, 0247ms total)
T0C5C 000:455 JLINK_WriteReg(R15 (PC), 0x200000F4)  returns 0x00 (0000ms, 0247ms total)
T0C5C 000:455 JLINK_WriteReg(XPSR, 0x01000000)  returns 0x00 (0000ms, 0247ms total)
T0C5C 000:455 JLINK_WriteReg(MSP, 0x20001000)  returns 0x00 (0000ms, 0247ms total)
T0C5C 000:455 JLINK_WriteReg(PSP, 0x20001000)  returns 0x00 (0000ms, 0247ms total)
T0C5C 000:455 JLINK_WriteReg(CFBP, 0x00000000)  returns 0x00 (0000ms, 0247ms total)
T0C5C 000:455 JLINK_SetBPEx(Addr = 0x20000000, Type = 0xFFFFFFF2)  returns 0x00000007 (0000ms, 0247ms total)
T0C5C 000:455 JLINK_Go() -- CPU_ReadMem(4 bytes @ 0xE0001000) (0002ms, 0249ms total)
T0C5C 000:457 JLINK_IsHalted()  returns FALSE (0001ms, 0250ms total)
T0C5C 000:460 JLINK_IsHalted()  returns FALSE (0000ms, 0249ms total)
T0C5C 000:462 JLINK_IsHalted()  returns FALSE (0000ms, 0249ms total)
T0C5C 000:464 JLINK_IsHalted()  returns FALSE (0000ms, 0249ms total)
T0C5C 000:467 JLINK_IsHalted()  returns FALSE (0000ms, 0249ms total)
T0C5C 000:469 JLINK_IsHalted()  returns FALSE (0000ms, 0249ms total)
T0C5C 000:471 JLINK_IsHalted()  returns FALSE (0000ms, 0249ms total)
T0C5C 000:473 JLINK_IsHalted()  returns FALSE (0000ms, 0249ms total)
T0C5C 000:475 JLINK_IsHalted()  returns FALSE (0000ms, 0249ms total)
T0C5C 000:477 JLINK_IsHalted()  returns FALSE (0000ms, 0249ms total)
T0C5C 000:479 JLINK_IsHalted()  returns FALSE (0000ms, 0249ms total)
T0C5C 000:481 JLINK_IsHalted()  returns FALSE (0000ms, 0249ms total)
T0C5C 000:484 JLINK_IsHalted()  returns FALSE (0000ms, 0249ms total)
T0C5C 000:486 JLINK_IsHalted()  returns FALSE (0000ms, 0249ms total)
T0C5C 000:488 JLINK_IsHalted()  returns FALSE (0000ms, 0249ms total)
T0C5C 000:490 JLINK_IsHalted() -- CPU_ReadMem(2 bytes @ 0x20000000)  returns TRUE (0004ms, 0253ms total)
T0C5C 000:494 JLINK_ReadReg(R15 (PC))  returns 0x20000000 (0000ms, 0249ms total)
T0C5C 000:494 JLINK_ClrBPEx(BPHandle = 0x00000007)  returns 0x00 (0000ms, 0249ms total)
T0C5C 000:494 JLINK_ReadReg(R0)  returns 0x00000000 (0000ms, 0249ms total)
T0C5C 000:494 JLINK_WriteMem(0x20000164, 0x029C Bytes, ...) - Data: 0B D9 30 68 20 F0 07 00 38 43 30 60 30 68 00 F0 ... -- CPU_WriteMem(668 bytes @ 0x20000164)  returns 0x29C (0008ms, 0257ms total)
T0C5C 000:502 JLINK_WriteMem(0x20000400, 0x0164 Bytes, ...) - Data: E8 61 E8 69 01 27 00 F0 80 50 00 90 5C 48 01 68 ... -- CPU_WriteMem(356 bytes @ 0x20000400)  returns 0x164 (0004ms, 0261ms total)
T0C5C 000:506 JLINK_WriteReg(R0, 0x08000C00)  returns 0x00 (0000ms, 0261ms total)
T0C5C 000:506 JLINK_WriteReg(R1, 0x00000400)  returns 0x00 (0000ms, 0261ms total)
T0C5C 000:506 JLINK_WriteReg(R2, 0x20000164)  returns 0x00 (0000ms, 0261ms total)
T0C5C 000:506 JLINK_WriteReg(R3, 0x00000000)  returns 0x00 (0000ms, 0261ms total)
T0C5C 000:506 JLINK_WriteReg(R4, 0x00000000)  returns 0x00 (0000ms, 0261ms total)
T0C5C 000:506 JLINK_WriteReg(R5, 0x00000000)  returns 0x00 (0000ms, 0261ms total)
T0C5C 000:506 JLINK_WriteReg(R6, 0x00000000)  returns 0x00 (0000ms, 0261ms total)
T0C5C 000:506 JLINK_WriteReg(R7, 0x00000000)  returns 0x00 (0000ms, 0261ms total)
T0C5C 000:506 JLINK_WriteReg(R8, 0x00000000)  returns 0x00 (0000ms, 0261ms total)
T0C5C 000:506 JLINK_WriteReg(R9, 0x20000160)  returns 0x00 (0000ms, 0261ms total)
T0C5C 000:506 JLINK_WriteReg(R10, 0x00000000)  returns 0x00 (0000ms, 0261ms total)
T0C5C 000:506 JLINK_WriteReg(R11, 0x00000000)  returns 0x00 (0000ms, 0261ms total)
T0C5C 000:506 JLINK_WriteReg(R12, 0x00000000)  returns 0x00 (0000ms, 0261ms total)
T0C5C 000:506 JLINK_WriteReg(R13 (SP), 0x20001000)  returns 0x00 (0000ms, 0261ms total)
T0C5C 000:506 JLINK_WriteReg(R14, 0x20000001)  returns 0x00 (0000ms, 0261ms total)
T0C5C 000:506 JLINK_WriteReg(R15 (PC), 0x200000F4)  returns 0x00 (0000ms, 0261ms total)
T0C5C 000:506 JLINK_WriteReg(XPSR, 0x01000000)  returns 0x00 (0000ms, 0261ms total)
T0C5C 000:506 JLINK_WriteReg(MSP, 0x20001000)  returns 0x00 (0000ms, 0261ms total)
T0C5C 000:506 JLINK_WriteReg(PSP, 0x20001000)  returns 0x00 (0000ms, 0261ms total)
T0C5C 000:506 JLINK_WriteReg(CFBP, 0x00000000)  returns 0x00 (0000ms, 0261ms total)
T0C5C 000:506 JLINK_SetBPEx(Addr = 0x20000000, Type = 0xFFFFFFF2)  returns 0x00000008 (0000ms, 0261ms total)
T0C5C 000:506 JLINK_Go() -- CPU_ReadMem(4 bytes @ 0xE0001000) (0002ms, 0263ms total)
T0C5C 000:508 JLINK_IsHalted()  returns FALSE (0001ms, 0264ms total)
T0C5C 000:511 JLINK_IsHalted()  returns FALSE (0001ms, 0264ms total)
T0C5C 000:516 JLINK_IsHalted()  returns FALSE (0000ms, 0263ms total)
T0C5C 000:518 JLINK_IsHalted()  returns FALSE (0000ms, 0263ms total)
T0C5C 000:520 JLINK_IsHalted()  returns FALSE (0000ms, 0263ms total)
T0C5C 000:523 JLINK_IsHalted()  returns FALSE (0000ms, 0263ms total)
T0C5C 000:525 JLINK_IsHalted()  returns FALSE (0000ms, 0263ms total)
T0C5C 000:527 JLINK_IsHalted()  returns FALSE (0000ms, 0263ms total)
T0C5C 000:529 JLINK_IsHalted()  returns FALSE (0000ms, 0263ms total)
T0C5C 000:531 JLINK_IsHalted()  returns FALSE (0000ms, 0263ms total)
T0C5C 000:533 JLINK_IsHalted()  returns FALSE (0000ms, 0263ms total)
T0C5C 000:535 JLINK_IsHalted()  returns FALSE (0001ms, 0264ms total)
T0C5C 000:538 JLINK_IsHalted()  returns FALSE (0000ms, 0263ms total)
T0C5C 000:540 JLINK_IsHalted() -- CPU_ReadMem(2 bytes @ 0x20000000)  returns TRUE (0004ms, 0267ms total)
T0C5C 000:544 JLINK_ReadReg(R15 (PC))  returns 0x20000000 (0000ms, 0263ms total)
T0C5C 000:544 JLINK_ClrBPEx(BPHandle = 0x00000008)  returns 0x00 (0000ms, 0263ms total)
T0C5C 000:544 JLINK_ReadReg(R0)  returns 0x00000000 (0000ms, 0263ms total)
T0C5C 000:544 JLINK_WriteMem(0x20000164, 0x029C Bytes, ...) - Data: 01 D0 01 20 EA E7 00 20 E8 E7 00 00 00 10 02 40 ... -- CPU_WriteMem(668 bytes @ 0x20000164)  returns 0x29C (0007ms, 0270ms total)
T0C5C 000:551 JLINK_WriteMem(0x20000400, 0x0164 Bytes, ...) - Data: 80 7F 01 D3 01 20 10 BD 4F F0 E0 24 60 61 0F 21 ... -- CPU_WriteMem(356 bytes @ 0x20000400)  returns 0x164 (0003ms, 0273ms total)
T0C5C 000:554 JLINK_WriteReg(R0, 0x08001000)  returns 0x00 (0000ms, 0273ms total)
T0C5C 000:555 JLINK_WriteReg(R1, 0x00000400)  returns 0x00 (0000ms, 0274ms total)
T0C5C 000:555 JLINK_WriteReg(R2, 0x20000164)  returns 0x00 (0000ms, 0274ms total)
T0C5C 000:555 JLINK_WriteReg(R3, 0x00000000)  returns 0x00 (0000ms, 0274ms total)
T0C5C 000:555 JLINK_WriteReg(R4, 0x00000000)  returns 0x00 (0000ms, 0274ms total)
T0C5C 000:555 JLINK_WriteReg(R5, 0x00000000)  returns 0x00 (0000ms, 0274ms total)
T0C5C 000:555 JLINK_WriteReg(R6, 0x00000000)  returns 0x00 (0000ms, 0274ms total)
T0C5C 000:555 JLINK_WriteReg(R7, 0x00000000)  returns 0x00 (0000ms, 0274ms total)
T0C5C 000:555 JLINK_WriteReg(R8, 0x00000000)  returns 0x00 (0000ms, 0274ms total)
T0C5C 000:555 JLINK_WriteReg(R9, 0x20000160)  returns 0x00 (0000ms, 0274ms total)
T0C5C 000:555 JLINK_WriteReg(R10, 0x00000000)  returns 0x00 (0000ms, 0274ms total)
T0C5C 000:555 JLINK_WriteReg(R11, 0x00000000)  returns 0x00 (0000ms, 0274ms total)
T0C5C 000:555 JLINK_WriteReg(R12, 0x00000000)  returns 0x00 (0000ms, 0274ms total)
T0C5C 000:555 JLINK_WriteReg(R13 (SP), 0x20001000)  returns 0x00 (0000ms, 0274ms total)
T0C5C 000:555 JLINK_WriteReg(R14, 0x20000001)  returns 0x00 (0000ms, 0274ms total)
T0C5C 000:555 JLINK_WriteReg(R15 (PC), 0x200000F4)  returns 0x00 (0000ms, 0274ms total)
T0C5C 000:555 JLINK_WriteReg(XPSR, 0x01000000)  returns 0x00 (0000ms, 0274ms total)
T0C5C 000:555 JLINK_WriteReg(MSP, 0x20001000)  returns 0x00 (0000ms, 0274ms total)
T0C5C 000:555 JLINK_WriteReg(PSP, 0x20001000)  returns 0x00 (0000ms, 0274ms total)
T0C5C 000:555 JLINK_WriteReg(CFBP, 0x00000000)  returns 0x00 (0000ms, 0274ms total)
T0C5C 000:555 JLINK_SetBPEx(Addr = 0x20000000, Type = 0xFFFFFFF2)  returns 0x00000009 (0000ms, 0274ms total)
T0C5C 000:555 JLINK_Go() -- CPU_ReadMem(4 bytes @ 0xE0001000) (0002ms, 0276ms total)
T0C5C 000:557 JLINK_IsHalted()  returns FALSE (0001ms, 0277ms total)
T0C5C 000:560 JLINK_IsHalted()  returns FALSE (0000ms, 0276ms total)
T0C5C 000:562 JLINK_IsHalted()  returns FALSE (0000ms, 0276ms total)
T0C5C 000:564 JLINK_IsHalted()  returns FALSE (0000ms, 0276ms total)
T0C5C 000:566 JLINK_IsHalted()  returns FALSE (0000ms, 0276ms total)
T0C5C 000:568 JLINK_IsHalted()  returns FALSE (0000ms, 0276ms total)
T0C5C 000:570 JLINK_IsHalted()  returns FALSE (0000ms, 0276ms total)
T0C5C 000:573 JLINK_IsHalted()  returns FALSE (0000ms, 0276ms total)
T0C5C 000:575 JLINK_IsHalted()  returns FALSE (0000ms, 0276ms total)
T0C5C 000:577 JLINK_IsHalted()  returns FALSE (0000ms, 0276ms total)
T0C5C 000:579 JLINK_IsHalted()  returns FALSE (0000ms, 0276ms total)
T0C5C 000:581 JLINK_IsHalted()  returns FALSE (0000ms, 0276ms total)
T0C5C 000:583 JLINK_IsHalted()  returns FALSE (0000ms, 0276ms total)
T0C5C 000:585 JLINK_IsHalted()  returns FALSE (0000ms, 0276ms total)
T0C5C 000:587 JLINK_IsHalted()  returns FALSE (0000ms, 0276ms total)
T0C5C 000:589 JLINK_IsHalted() -- CPU_ReadMem(2 bytes @ 0x20000000)  returns TRUE (0004ms, 0280ms total)
T0C5C 000:593 JLINK_ReadReg(R15 (PC))  returns 0x20000000 (0000ms, 0276ms total)
T0C5C 000:593 JLINK_ClrBPEx(BPHandle = 0x00000009)  returns 0x00 (0000ms, 0276ms total)
T0C5C 000:593 JLINK_ReadReg(R0)  returns 0x00000000 (0000ms, 0276ms total)
T0C5C 000:594 JLINK_WriteMem(0x20000164, 0x029C Bytes, ...) - Data: 40 F0 08 00 88 61 88 69 69 46 00 F0 08 00 04 90 ... -- CPU_WriteMem(668 bytes @ 0x20000164)  returns 0x29C (0006ms, 0282ms total)
T0C5C 000:600 JLINK_WriteMem(0x20000400, 0x0164 Bytes, ...) - Data: 94 F8 41 00 21 28 F5 D1 A0 68 B0 F5 80 5F 01 D1 ... -- CPU_WriteMem(356 bytes @ 0x20000400)  returns 0x164 (0004ms, 0286ms total)
T0C5C 000:604 JLINK_WriteReg(R0, 0x08001400)  returns 0x00 (0000ms, 0286ms total)
T0C5C 000:604 JLINK_WriteReg(R1, 0x00000400)  returns 0x00 (0000ms, 0286ms total)
T0C5C 000:604 JLINK_WriteReg(R2, 0x20000164)  returns 0x00 (0000ms, 0286ms total)
T0C5C 000:604 JLINK_WriteReg(R3, 0x00000000)  returns 0x00 (0000ms, 0286ms total)
T0C5C 000:604 JLINK_WriteReg(R4, 0x00000000)  returns 0x00 (0000ms, 0286ms total)
T0C5C 000:604 JLINK_WriteReg(R5, 0x00000000)  returns 0x00 (0000ms, 0286ms total)
T0C5C 000:604 JLINK_WriteReg(R6, 0x00000000)  returns 0x00 (0000ms, 0286ms total)
T0C5C 000:604 JLINK_WriteReg(R7, 0x00000000)  returns 0x00 (0000ms, 0286ms total)
T0C5C 000:604 JLINK_WriteReg(R8, 0x00000000)  returns 0x00 (0000ms, 0286ms total)
T0C5C 000:604 JLINK_WriteReg(R9, 0x20000160)  returns 0x00 (0000ms, 0286ms total)
T0C5C 000:604 JLINK_WriteReg(R10, 0x00000000)  returns 0x00 (0000ms, 0286ms total)
T0C5C 000:604 JLINK_WriteReg(R11, 0x00000000)  returns 0x00 (0000ms, 0286ms total)
T0C5C 000:604 JLINK_WriteReg(R12, 0x00000000)  returns 0x00 (0000ms, 0286ms total)
T0C5C 000:604 JLINK_WriteReg(R13 (SP), 0x20001000)  returns 0x00 (0000ms, 0286ms total)
T0C5C 000:604 JLINK_WriteReg(R14, 0x20000001)  returns 0x00 (0000ms, 0286ms total)
T0C5C 000:604 JLINK_WriteReg(R15 (PC), 0x200000F4)  returns 0x00 (0000ms, 0286ms total)
T0C5C 000:604 JLINK_WriteReg(XPSR, 0x01000000)  returns 0x00 (0000ms, 0286ms total)
T0C5C 000:604 JLINK_WriteReg(MSP, 0x20001000)  returns 0x00 (0000ms, 0286ms total)
T0C5C 000:604 JLINK_WriteReg(PSP, 0x20001000)  returns 0x00 (0000ms, 0286ms total)
T0C5C 000:604 JLINK_WriteReg(CFBP, 0x00000000)  returns 0x00 (0000ms, 0286ms total)
T0C5C 000:604 JLINK_SetBPEx(Addr = 0x20000000, Type = 0xFFFFFFF2)  returns 0x0000000A (0000ms, 0286ms total)
T0C5C 000:604 JLINK_Go() -- CPU_ReadMem(4 bytes @ 0xE0001000) (0003ms, 0289ms total)
T0C5C 000:607 JLINK_IsHalted()  returns FALSE (0001ms, 0290ms total)
T0C5C 000:610 JLINK_IsHalted()  returns FALSE (0000ms, 0289ms total)
T0C5C 000:612 JLINK_IsHalted()  returns FALSE (0000ms, 0289ms total)
T0C5C 000:614 JLINK_IsHalted()  returns FALSE (0000ms, 0289ms total)
T0C5C 000:616 JLINK_IsHalted()  returns FALSE (0000ms, 0289ms total)
T0C5C 000:618 JLINK_IsHalted()  returns FALSE (0000ms, 0289ms total)
T0C5C 000:621 JLINK_IsHalted()  returns FALSE (0000ms, 0289ms total)
T0C5C 000:623 JLINK_IsHalted()  returns FALSE (0000ms, 0289ms total)
T0C5C 000:625 JLINK_IsHalted()  returns FALSE (0000ms, 0289ms total)
T0C5C 000:627 JLINK_IsHalted()  returns FALSE (0000ms, 0289ms total)
T0C5C 000:629 JLINK_IsHalted()  returns FALSE (0000ms, 0289ms total)
T0C5C 000:631 JLINK_IsHalted()  returns FALSE (0000ms, 0289ms total)
T0C5C 000:633 JLINK_IsHalted()  returns FALSE (0000ms, 0289ms total)
T0C5C 000:635 JLINK_IsHalted()  returns FALSE (0000ms, 0289ms total)
T0C5C 000:637 JLINK_IsHalted()  returns FALSE (0000ms, 0289ms total)
T0C5C 000:639 JLINK_IsHalted() -- CPU_ReadMem(2 bytes @ 0x20000000)  returns TRUE (0005ms, 0294ms total)
T0C5C 000:644 JLINK_ReadReg(R15 (PC))  returns 0x20000000 (0000ms, 0289ms total)
T0C5C 000:644 JLINK_ClrBPEx(BPHandle = 0x0000000A)  returns 0x00 (0000ms, 0289ms total)
T0C5C 000:644 JLINK_ReadReg(R0)  returns 0x00000000 (0000ms, 0289ms total)
T0C5C 000:644 JLINK_WriteMem(0x20000164, 0x029C Bytes, ...) - Data: 1C 46 15 46 0E 46 2A 20 00 F0 D0 FA BF 1C B8 B2 ... -- CPU_WriteMem(668 bytes @ 0x20000164)  returns 0x29C (0006ms, 0295ms total)
T0C5C 000:650 JLINK_WriteMem(0x20000400, 0x0164 Bytes, ...) - Data: 57 F9 07 20 00 F0 54 F9 0A 20 00 F0 51 F9 2E 20 ... -- CPU_WriteMem(356 bytes @ 0x20000400)  returns 0x164 (0005ms, 0300ms total)
T0C5C 000:655 JLINK_WriteReg(R0, 0x08001800)  returns 0x00 (0000ms, 0300ms total)
T0C5C 000:655 JLINK_WriteReg(R1, 0x00000400)  returns 0x00 (0000ms, 0300ms total)
T0C5C 000:655 JLINK_WriteReg(R2, 0x20000164)  returns 0x00 (0000ms, 0300ms total)
T0C5C 000:655 JLINK_WriteReg(R3, 0x00000000)  returns 0x00 (0000ms, 0300ms total)
T0C5C 000:655 JLINK_WriteReg(R4, 0x00000000)  returns 0x00 (0000ms, 0300ms total)
T0C5C 000:655 JLINK_WriteReg(R5, 0x00000000)  returns 0x00 (0000ms, 0300ms total)
T0C5C 000:655 JLINK_WriteReg(R6, 0x00000000)  returns 0x00 (0000ms, 0300ms total)
T0C5C 000:655 JLINK_WriteReg(R7, 0x00000000)  returns 0x00 (0000ms, 0300ms total)
T0C5C 000:655 JLINK_WriteReg(R8, 0x00000000)  returns 0x00 (0000ms, 0300ms total)
T0C5C 000:655 JLINK_WriteReg(R9, 0x20000160)  returns 0x00 (0000ms, 0300ms total)
T0C5C 000:655 JLINK_WriteReg(R10, 0x00000000)  returns 0x00 (0000ms, 0300ms total)
T0C5C 000:655 JLINK_WriteReg(R11, 0x00000000)  returns 0x00 (0000ms, 0300ms total)
T0C5C 000:655 JLINK_WriteReg(R12, 0x00000000)  returns 0x00 (0000ms, 0300ms total)
T0C5C 000:655 JLINK_WriteReg(R13 (SP), 0x20001000)  returns 0x00 (0000ms, 0300ms total)
T0C5C 000:655 JLINK_WriteReg(R14, 0x20000001)  returns 0x00 (0000ms, 0300ms total)
T0C5C 000:655 JLINK_WriteReg(R15 (PC), 0x200000F4)  returns 0x00 (0000ms, 0300ms total)
T0C5C 000:655 JLINK_WriteReg(XPSR, 0x01000000)  returns 0x00 (0000ms, 0300ms total)
T0C5C 000:655 JLINK_WriteReg(MSP, 0x20001000)  returns 0x00 (0000ms, 0300ms total)
T0C5C 000:655 JLINK_WriteReg(PSP, 0x20001000)  returns 0x00 (0000ms, 0300ms total)
T0C5C 000:655 JLINK_WriteReg(CFBP, 0x00000000)  returns 0x00 (0000ms, 0300ms total)
T0C5C 000:655 JLINK_SetBPEx(Addr = 0x20000000, Type = 0xFFFFFFF2)  returns 0x0000000B (0000ms, 0300ms total)
T0C5C 000:655 JLINK_Go() -- CPU_ReadMem(4 bytes @ 0xE0001000) (0003ms, 0303ms total)
T0C5C 000:658 JLINK_IsHalted()  returns FALSE (0000ms, 0303ms total)
T0C5C 000:659 JLINK_IsHalted()  returns FALSE (0000ms, 0303ms total)
T0C5C 000:661 JLINK_IsHalted()  returns FALSE (0001ms, 0304ms total)
T0C5C 000:664 JLINK_IsHalted()  returns FALSE (0000ms, 0303ms total)
T0C5C 000:666 JLINK_IsHalted()  returns FALSE (0000ms, 0303ms total)
T0C5C 000:668 JLINK_IsHalted()  returns FALSE (0000ms, 0303ms total)
T0C5C 000:670 JLINK_IsHalted()  returns FALSE (0000ms, 0303ms total)
T0C5C 000:672 JLINK_IsHalted()  returns FALSE (0000ms, 0303ms total)
T0C5C 000:674 JLINK_IsHalted()  returns FALSE (0000ms, 0303ms total)
T0C5C 000:676 JLINK_IsHalted()  returns FALSE (0000ms, 0303ms total)
T0C5C 000:678 JLINK_IsHalted()  returns FALSE (0000ms, 0303ms total)
T0C5C 000:680 JLINK_IsHalted()  returns FALSE (0000ms, 0303ms total)
T0C5C 000:682 JLINK_IsHalted()  returns FALSE (0000ms, 0303ms total)
T0C5C 000:684 JLINK_IsHalted()  returns FALSE (0000ms, 0303ms total)
T0C5C 000:686 JLINK_IsHalted()  returns FALSE (0000ms, 0303ms total)
T0C5C 000:688 JLINK_IsHalted()  returns FALSE (0000ms, 0303ms total)
T0C5C 000:690 JLINK_IsHalted() -- CPU_ReadMem(2 bytes @ 0x20000000)  returns TRUE (0004ms, 0307ms total)
T0C5C 000:694 JLINK_ReadReg(R15 (PC))  returns 0x20000000 (0000ms, 0303ms total)
T0C5C 000:694 JLINK_ClrBPEx(BPHandle = 0x0000000B)  returns 0x00 (0000ms, 0303ms total)
T0C5C 000:694 JLINK_ReadReg(R0)  returns 0x00000000 (0000ms, 0303ms total)
T0C5C 000:694 JLINK_WriteMem(0x20000164, 0x029C Bytes, ...) - Data: 3D 49 01 EB 8A 11 06 F0 07 02 08 5C 01 21 91 40 ... -- CPU_WriteMem(668 bytes @ 0x20000164)  returns 0x29C (0007ms, 0310ms total)
T0C5C 000:701 JLINK_WriteMem(0x20000400, 0x0164 Bytes, ...) - Data: 01 54 69 46 40 46 FE F7 BD FC 00 97 03 96 CD E9 ... -- CPU_WriteMem(356 bytes @ 0x20000400)  returns 0x164 (0003ms, 0313ms total)
T0C5C 000:704 JLINK_WriteReg(R0, 0x08001C00)  returns 0x00 (0000ms, 0313ms total)
T0C5C 000:704 JLINK_WriteReg(R1, 0x00000400)  returns 0x00 (0000ms, 0313ms total)
T0C5C 000:704 JLINK_WriteReg(R2, 0x20000164)  returns 0x00 (0000ms, 0313ms total)
T0C5C 000:704 JLINK_WriteReg(R3, 0x00000000)  returns 0x00 (0000ms, 0313ms total)
T0C5C 000:704 JLINK_WriteReg(R4, 0x00000000)  returns 0x00 (0000ms, 0313ms total)
T0C5C 000:704 JLINK_WriteReg(R5, 0x00000000)  returns 0x00 (0000ms, 0313ms total)
T0C5C 000:704 JLINK_WriteReg(R6, 0x00000000)  returns 0x00 (0000ms, 0313ms total)
T0C5C 000:704 JLINK_WriteReg(R7, 0x00000000)  returns 0x00 (0000ms, 0313ms total)
T0C5C 000:704 JLINK_WriteReg(R8, 0x00000000)  returns 0x00 (0000ms, 0313ms total)
T0C5C 000:704 JLINK_WriteReg(R9, 0x20000160)  returns 0x00 (0000ms, 0313ms total)
T0C5C 000:706 JLINK_WriteReg(R10, 0x00000000)  returns 0x00 (0000ms, 0315ms total)
T0C5C 000:706 JLINK_WriteReg(R11, 0x00000000)  returns 0x00 (0000ms, 0315ms total)
T0C5C 000:706 JLINK_WriteReg(R12, 0x00000000)  returns 0x00 (0000ms, 0315ms total)
T0C5C 000:706 JLINK_WriteReg(R13 (SP), 0x20001000)  returns 0x00 (0000ms, 0315ms total)
T0C5C 000:706 JLINK_WriteReg(R14, 0x20000001)  returns 0x00 (0000ms, 0315ms total)
T0C5C 000:706 JLINK_WriteReg(R15 (PC), 0x200000F4)  returns 0x00 (0000ms, 0315ms total)
T0C5C 000:706 JLINK_WriteReg(XPSR, 0x01000000)  returns 0x00 (0000ms, 0315ms total)
T0C5C 000:706 JLINK_WriteReg(MSP, 0x20001000)  returns 0x00 (0000ms, 0315ms total)
T0C5C 000:706 JLINK_WriteReg(PSP, 0x20001000)  returns 0x00 (0000ms, 0315ms total)
T0C5C 000:706 JLINK_WriteReg(CFBP, 0x00000000)  returns 0x00 (0000ms, 0315ms total)
T0C5C 000:706 JLINK_SetBPEx(Addr = 0x20000000, Type = 0xFFFFFFF2)  returns 0x0000000C (0000ms, 0315ms total)
T0C5C 000:706 JLINK_Go() -- CPU_ReadMem(4 bytes @ 0xE0001000) (0002ms, 0317ms total)
T0C5C 000:708 JLINK_IsHalted()  returns FALSE (0000ms, 0317ms total)
T0C5C 000:710 JLINK_IsHalted()  returns FALSE (0000ms, 0317ms total)
T0C5C 000:712 JLINK_IsHalted()  returns FALSE (0000ms, 0317ms total)
T0C5C 000:714 JLINK_IsHalted()  returns FALSE (0000ms, 0317ms total)
T0C5C 000:716 JLINK_IsHalted()  returns FALSE (0001ms, 0318ms total)
T0C5C 000:718 JLINK_IsHalted()  returns FALSE (0000ms, 0317ms total)
T0C5C 000:720 JLINK_IsHalted()  returns FALSE (0000ms, 0317ms total)
T0C5C 000:722 JLINK_IsHalted()  returns FALSE (0000ms, 0317ms total)
T0C5C 000:724 JLINK_IsHalted()  returns FALSE (0000ms, 0317ms total)
T0C5C 000:726 JLINK_IsHalted()  returns FALSE (0000ms, 0317ms total)
T0C5C 000:728 JLINK_IsHalted()  returns FALSE (0000ms, 0317ms total)
T0C5C 000:731 JLINK_IsHalted()  returns FALSE (0000ms, 0317ms total)
T0C5C 000:733 JLINK_IsHalted()  returns FALSE (0001ms, 0318ms total)
T0C5C 000:736 JLINK_IsHalted()  returns FALSE (0000ms, 0317ms total)
T0C5C 000:738 JLINK_IsHalted()  returns FALSE (0000ms, 0317ms total)
T0C5C 000:740 JLINK_IsHalted() -- CPU_ReadMem(2 bytes @ 0x20000000)  returns TRUE (0004ms, 0321ms total)
T0C5C 000:744 JLINK_ReadReg(R15 (PC))  returns 0x20000000 (0000ms, 0317ms total)
T0C5C 000:744 JLINK_ClrBPEx(BPHandle = 0x0000000C)  returns 0x00 (0000ms, 0317ms total)
T0C5C 000:744 JLINK_ReadReg(R0)  returns 0x00000000 (0000ms, 0317ms total)
T0C5C 000:745 JLINK_WriteMem(0x20000164, 0x029C Bytes, ...) - Data: 03 D0 BD E8 10 40 FE F7 A9 B9 10 BD 00 38 01 40 ... -- CPU_WriteMem(668 bytes @ 0x20000164)  returns 0x29C (0007ms, 0324ms total)
T0C5C 000:752 JLINK_WriteMem(0x20000400, 0x0164 Bytes, ...) - Data: 11 46 18 46 00 96 FF F7 CB FA 4F F4 7A 79 48 46 ... -- CPU_WriteMem(356 bytes @ 0x20000400)  returns 0x164 (0004ms, 0328ms total)
T0C5C 000:756 JLINK_WriteReg(R0, 0x08002000)  returns 0x00 (0000ms, 0328ms total)
T0C5C 000:756 JLINK_WriteReg(R1, 0x00000400)  returns 0x00 (0000ms, 0328ms total)
T0C5C 000:756 JLINK_WriteReg(R2, 0x20000164)  returns 0x00 (0000ms, 0328ms total)
T0C5C 000:756 JLINK_WriteReg(R3, 0x00000000)  returns 0x00 (0000ms, 0328ms total)
T0C5C 000:756 JLINK_WriteReg(R4, 0x00000000)  returns 0x00 (0000ms, 0328ms total)
T0C5C 000:756 JLINK_WriteReg(R5, 0x00000000)  returns 0x00 (0000ms, 0328ms total)
T0C5C 000:756 JLINK_WriteReg(R6, 0x00000000)  returns 0x00 (0000ms, 0328ms total)
T0C5C 000:756 JLINK_WriteReg(R7, 0x00000000)  returns 0x00 (0000ms, 0328ms total)
T0C5C 000:756 JLINK_WriteReg(R8, 0x00000000)  returns 0x00 (0000ms, 0328ms total)
T0C5C 000:756 JLINK_WriteReg(R9, 0x20000160)  returns 0x00 (0000ms, 0328ms total)
T0C5C 000:756 JLINK_WriteReg(R10, 0x00000000)  returns 0x00 (0000ms, 0328ms total)
T0C5C 000:756 JLINK_WriteReg(R11, 0x00000000)  returns 0x00 (0000ms, 0328ms total)
T0C5C 000:756 JLINK_WriteReg(R12, 0x00000000)  returns 0x00 (0000ms, 0328ms total)
T0C5C 000:756 JLINK_WriteReg(R13 (SP), 0x20001000)  returns 0x00 (0000ms, 0328ms total)
T0C5C 000:756 JLINK_WriteReg(R14, 0x20000001)  returns 0x00 (0000ms, 0328ms total)
T0C5C 000:756 JLINK_WriteReg(R15 (PC), 0x200000F4)  returns 0x00 (0000ms, 0328ms total)
T0C5C 000:756 JLINK_WriteReg(XPSR, 0x01000000)  returns 0x00 (0000ms, 0328ms total)
T0C5C 000:756 JLINK_WriteReg(MSP, 0x20001000)  returns 0x00 (0000ms, 0328ms total)
T0C5C 000:756 JLINK_WriteReg(PSP, 0x20001000)  returns 0x00 (0000ms, 0328ms total)
T0C5C 000:756 JLINK_WriteReg(CFBP, 0x00000000)  returns 0x00 (0000ms, 0328ms total)
T0C5C 000:756 JLINK_SetBPEx(Addr = 0x20000000, Type = 0xFFFFFFF2)  returns 0x0000000D (0000ms, 0328ms total)
T0C5C 000:756 JLINK_Go() -- CPU_ReadMem(4 bytes @ 0xE0001000) (0002ms, 0330ms total)
T0C5C 000:758 JLINK_IsHalted()  returns FALSE (0000ms, 0330ms total)
T0C5C 000:760 JLINK_IsHalted()  returns FALSE (0000ms, 0330ms total)
